
**** 11/19/23 18:21:32 ******* PSpice Lite (March 2016) ******* ID# 10813 ****

 ** Profile: "SCHEMATIC1-sim3"  [ C:\Users\asus\Desktop\New folder\p1-pspicefiles\schematic1\sim3.sim ] 


 ****     CIRCUIT DESCRIPTION


******************************************************************************




** Creating circuit file "sim3.cir" 
** WARNING: THIS AUTOMATICALLY GENERATED FILE MAY BE OVERWRITTEN BY SUBSEQUENT SIMULATIONS

*Libraries: 
* Profile Libraries :
* Local Libraries :
.LIB "C:/Cadence/SPB_17.2/tools/capture/library/pspice/BC846B.lib" 
* From [PSPICE NETLIST] section of C:\Users\asus\AppData\Roaming\SPB_Data\cdssetup\OrCAD_PSpice\17.2.0\PSpice.ini file:
.lib "nomd.lib" 

*Analysis directives: 
.TRAN  0 10m 0 
.OPTIONS ADVCONV
.PROBE64 V(alias(*)) I(alias(*)) W(alias(*)) D(alias(*)) NOISE(alias(*)) 
.INC "..\SCHEMATIC1.net" 



**** INCLUDING SCHEMATIC1.net ****
* source P1
Q_Q1         N00260 N00241 N00237 QBC846B 
Q_Q2         N00452 N00260 N00464 QBC846B 
C_C1         N00196 N00241  4.7u  TC=0,0 
V_V1         N00196 0  AC 200m
+SIN 0 200m 1k 0 0 0
R_R11         N001741 N00196  47k TC=0,0 
R_R3         0 N00237  1k TC=0,0 
R_R21         N00260 N03355  100k TC=0,0 
R_R4         VCC N00452 15k
R_R5         N00464 0 1k
R_R61         N00241 N07191 330k
C_C22         N00452 N00617  4.7u  TC=0,0 
C_C31         N00617 N00695  4.7u  TC=0,0 
C_C41         0 N00464  10u  TC=0,0 
R_R91         N00237 N06774  47k TC=0,0 
R_R101         N01125 N06665  510k TC=0,0 
C_C5         N00237 N01125  1.2n  TC=0,0 
C_C6         N01125 N00617  4.4n  TC=0,0 
V_V2         VCC 0 18Vdc
R_R22         N03355 VCC  100k TC=0,0 
C_C7         0 N03355  4.7u  TC=0,0 
C_C42         0 N00464  10u  TC=0,0 
R_R12         N060131 N001741  9.1k TC=0,0 
R_R13         0 N060131  3.9k TC=0,0 
R_R102         N00617 N06665  220k TC=0,0 
R_R92         N01125 N06774  15k TC=0,0 
R_R62         N07007 N07191  15k TC=0,0 
R_R63         N00464 N07007  15k TC=0,0 
C_C32         N00617 N00695  4.7n  TC=0,0 
C_C21         N00452 N00617  4.7n  TC=0,0 
C_C23         N00452 N00617  4.7n  TC=0,0 
X_P1         0 0 N00695 POT PARAMS: SET=0.25 VALUE=100k

**** RESUMING sim3.cir ****
.END

**** 11/19/23 18:21:32 ******* PSpice Lite (March 2016) ******* ID# 10813 ****

 ** Profile: "SCHEMATIC1-sim3"  [ C:\Users\asus\Desktop\New folder\p1-pspicefiles\schematic1\sim3.sim ] 


 ****     BJT MODEL PARAMETERS


******************************************************************************




               QBC846B         
               NPN             
       LEVEL    1            
          IS   18.220000E-15 
          BF  324.4          
          NF     .9932       
         VAF   82            
         IKF     .109        
         ISE  289.400000E-18 
          NE    1.4          
          BR    8.29         
          NR     .9931       
         VAR   17.9          
         IKR     .09         
         ISC    9.982000E-12 
          NC    1.763        
         ISS    0            
          RB   10            
         RBM    5            
         IRB    5.000000E-06 
          RE     .649        
          RC     .7014       
         CJE   12.440000E-12 
         VJE     .7579       
         MJE     .3656       
         CJC    3.347000E-12 
         VJC     .5463       
         MJC     .391        
        XCJC     .6193       
         CJS    0            
         VJS     .75         
         MJS     .333        
          FC     .979        
          TF  490.800000E-12 
         XTF    9.51         
         VTF    2.927        
         ITF     .3131       
          TR   90.000000E-09 
          KF    0            
          AF    1            
          CN    2.42         
           D     .87         


**** 11/19/23 18:21:32 ******* PSpice Lite (March 2016) ******* ID# 10813 ****

 ** Profile: "SCHEMATIC1-sim3"  [ C:\Users\asus\Desktop\New folder\p1-pspicefiles\schematic1\sim3.sim ] 


 ****     INITIAL TRANSIENT SOLUTION       TEMPERATURE =   27.000 DEG C


******************************************************************************



 NODE   VOLTAGE     NODE   VOLTAGE     NODE   VOLTAGE     NODE   VOLTAGE


(  VCC)   18.0000  (N00196)    0.0000 (N00237)     .0812 (N00241)     .6525     

(N00260)    1.3726 (N00452)    6.8524 (N00464)     .7452 (N00617)     .0812     

(N00695)    0.0000 (N01125)     .0812 (N03355)    9.6863 (N06665)     .0812     

(N06774)     .0812 (N07007)     .7413 (N07191)     .7374 (N001741)    0.0000    

(N060131)    0.0000                   




    VOLTAGE SOURCE CURRENTS
    NAME         CURRENT

    V_V1         0.000E+00
    V_V2        -8.263E-04

    TOTAL POWER DISSIPATION   1.49E-02  WATTS



          JOB CONCLUDED

**** 11/19/23 18:21:32 ******* PSpice Lite (March 2016) ******* ID# 10813 ****

 ** Profile: "SCHEMATIC1-sim3"  [ C:\Users\asus\Desktop\New folder\p1-pspicefiles\schematic1\sim3.sim ] 


 ****     JOB STATISTICS SUMMARY


******************************************************************************



  Total job time (using Solver 1)   =         .16
